
T4E4C 000:601 SEGGER J-Link V4.80g Log File (0002ms, 0292ms total)
T4E4C 000:601 DLL Compiled: Feb 13 2014 20:50:02 (0003ms, 0293ms total)
T4E4C 000:601 Logging started @ 2019-05-06 16:06 (0003ms, 0293ms total)
T4E4C 000:604 JLINK_SetWarnOutHandler(...) (0000ms, 0293ms total)
T4E4C 000:604 JLINK_OpenEx(...)
Firmware: J-Link V9 compiled Sep  1 2016 18:29:50
Hardware: V9.40
S/N: 59400616
Feature(s): RDI, FlashBP, FlashDL, JFlash, GDB  returns O.K. (0290ms, 0583ms total)
T4E4C 000:894 JLINK_SetErrorOutHandler(...) (0000ms, 0583ms total)
T4E4C 000:894 JLINK_ExecCommand("ProjectFile = "D:\比赛资料\光纤大楼\Optical_power_meter - 液晶-复位\Optical_power_meter - 副本 - 液晶\Project\RVMDK（uv4）\JLinkSettings.ini"", ...)  returns 0x00 (0001ms, 0584ms total)
T4E4C 000:905 JLINK_ExecCommand("Device = STM32F103ZE", ...)Device "STM32F103ZE" selected (512 KB flash, 64 KB RAM).  returns 0x00 (0012ms, 0596ms total)
T4E4C 000:917 JLINK_ExecCommand("DisableConnectionTimeout", ...)  returns 0x01 (0000ms, 0596ms total)
T4E4C 000:917 JLINK_GetHardwareVersion()  returns 0x16F30 (0000ms, 0596ms total)
T4E4C 000:917 JLINK_GetDLLVersion()  returns 48007 (0000ms, 0596ms total)
T4E4C 000:917 JLINK_GetFirmwareString(...) (0000ms, 0596ms total)
T4E4C 000:965 JLINK_GetDLLVersion()  returns 48007 (0000ms, 0596ms total)
T4E4C 000:965 JLINK_GetCompileDateTime() (0000ms, 0596ms total)
T4E4C 000:982 JLINK_GetFirmwareString(...) (0001ms, 0597ms total)
T4E4C 001:004 JLINK_GetHardwareVersion()  returns 0x16F30 (0000ms, 0597ms total)
T4E4C 001:025 JLINK_TIF_Select(JLINKARM_TIF_JTAG)  returns 0x00 (0001ms, 0598ms total)
T4E4C 001:026 JLINK_SetSpeed(5000) (0001ms, 0599ms total)
T4E4C 001:027 JLINK_GetIdData(...) >0x2F8 JTAG>TotalIRLen = 9, IRPrint = 0x0011 >0x30 JTAG> >0x210 JTAG> >0x40 JTAG> >0x40 JTAG> >0x40 JTAG> >0x30 JTAG> >0x40 JTAG> >0x40 JTAG> >0x40 JTAG> >0x40 JTAG> >0x40 JTAG> >0x40 JTAG> >0x40 JTAG> >0x40 JTAG> >0x2F8 JTAG>TotalIRLen = 9, IRPrint = 0x0011 >0x30 JTAG> >0x210 JTAG> >0x70 JTAG> >0x40 JTAG> >0x40 JTAG> >0x40 JTAG> >0x50 JTAG> >0x80 JTAG> >0x40 JTAG> >0x30 JTAG> >0x40 JTAG> >0x40 JTAG> >0x30 JTAG> >0x40 JTAG> >0x50 JTAG>
Found Cortex-M3 r1p1, Little endian. -- CPU_WriteMem(4 bytes @ 0xE0002000) -- CPU_ReadMem(4 bytes @ 0xE000EDF0) -- CPU_ReadMem(4 bytes @ 0xE0002000)FPUnit: 6 code (BP) slots and 2 literal slots -- CPU_ReadMem(4 bytes @ 0xE000EDFC) -- CPU_ReadMem(4 bytes @ 0xE0001000) -- CPU_WriteMem(4 bytes @ 0xE0001000) -- CPU_ReadMem(4 bytes @ 0xE00FF010)TPIU fitted. -- CPU_ReadMem(4 bytes @ 0xE00FF014)ETM fitted. -- CPU_ReadMem(4 bytes @ 0xE00FF018) ScanLen=9 NumDevices=2 aId[0]=0x3BA00477 aIrRead[0]=0 aScanLen[0]=0
 aScanRead[0]=0 (0060ms, 0659ms total)
T4E4C 001:087 JLINK_JTAG_GetDeviceID(DeviceIndex = 0)  returns 0x3BA00477 (0000ms, 0659ms total)
T4E4C 001:087 JLINK_JTAG_GetDeviceInfo(DeviceIndex = 0)  returns 0x00 (0000ms, 0659ms total)
T4E4C 001:087 JLINK_JTAG_GetDeviceID(DeviceIndex = 1)  returns 0x6414041 (0000ms, 0659ms total)
T4E4C 001:087 JLINK_JTAG_GetDeviceInfo(DeviceIndex = 1)  returns 0x00 (0000ms, 0659ms total)
T4E4C 001:087 JLINK_GetDeviceFamily()  returns 3 (0000ms, 0659ms total)
T4E4C 001:093 JLINK_ReadMem (0xE00FFFF0, 0x0010 Bytes, ...) -- CPU is running -- CPU_ReadMem(16 bytes @ 0xE00FFFF0) -- Data:  0D 00 00 00 10 00 00 00 05 00 00 00 B1 00 00 00  returns 0x00 (0001ms, 0660ms total)
T4E4C 001:094 JLINK_ReadMem (0xE00FFFD0, 0x0020 Bytes, ...) -- CPU is running -- CPU_ReadMem(32 bytes @ 0xE00FFFD0) -- Data:  00 00 00 00 00 00 00 00 00 00 00 00 00 00 00 00 ...  returns 0x00 (0001ms, 0661ms total)
T4E4C 001:095 JLINK_ReadMem (0xE00FF000, 0x0018 Bytes, ...) -- CPU is running -- CPU_ReadMem(24 bytes @ 0xE00FF000) -- Data:  03 F0 F0 FF 03 20 F0 FF 03 30 F0 FF 03 10 F0 FF ...  returns 0x00 (0000ms, 0661ms total)
T4E4C 001:095 JLINK_ReadMemU32(0xE000ED00, 0x0001 Items, ...) -- CPU is running -- CPU_ReadMem(4 bytes @ 0xE000ED00) -- Data:  31 C2 1F 41  returns 0x01 (0001ms, 0662ms total)
T4E4C 001:096 JLINK_SetResetType(JLINKARM_RESET_TYPE_NORMAL)  returns JLINKARM_RESET_TYPE_NORMAL (0000ms, 0662ms total)
T4E4C 001:096 JLINK_Reset() -- CPU is running -- CPU_WriteMem(4 bytes @ 0xE000EDF0) -- CPU is running -- CPU_WriteMem(4 bytes @ 0xE000EDFC) -- CPU is running -- CPU_WriteMem(4 bytes @ 0xE000ED0C) -- CPU is running -- CPU_ReadMem(4 bytes @ 0xE000EDF0) -- CPU is running -- CPU_ReadMem(4 bytes @ 0xE000EDF0) -- CPU is running -- CPU_WriteMem(4 bytes @ 0xE000EDF0) -- CPU is running -- CPU_WriteMem(4 bytes @ 0xE000EDFC) -- CPU is running -- CPU_ReadMem(4 bytes @ 0xE000EDF0) >0x80 JTAG> >0x40 JTAG> >0x30 JTAG>
 >0x40 JTAG> >0x50 JTAG> >0x40 JTAG> -- CPU_WriteMem(4 bytes @ 0xE000EDFC) -- CPU_WriteMem(4 bytes @ 0xE0001028) -- CPU_WriteMem(4 bytes @ 0xE0001038) -- CPU_WriteMem(4 bytes @ 0xE0001048) -- CPU_WriteMem(4 bytes @ 0xE0001058) -- CPU_WriteMem(4 bytes @ 0xE0002000) -- CPU_ReadMem(4 bytes @ 0xE000EDFC) -- CPU_ReadMem(4 bytes @ 0xE0001000) (0023ms, 0685ms total)
T4E4C 001:119 JLINK_Halt()  returns 0x00 (0000ms, 0685ms total)
T4E4C 001:119 JLINK_IsHalted()  returns TRUE (0000ms, 0685ms total)
T4E4C 001:119 JLINK_ReadMemU32(0xE000EDF0, 0x0001 Items, ...) -- CPU_ReadMem(4 bytes @ 0xE000EDF0) -- Data:  03 00 03 00  returns 0x01 (0001ms, 0686ms total)
T4E4C 001:120 JLINK_WriteU32(0xE000EDF0, 0xA05F0003) -- CPU_WriteMem(4 bytes @ 0xE000EDF0)  returns 0x00 (0000ms, 0686ms total)
T4E4C 001:120 JLINK_WriteU32(0xE000EDFC, 0x01000000) -- CPU_WriteMem(4 bytes @ 0xE000EDFC)  returns 0x00 (0001ms, 0687ms total)
T4E4C 001:258 JLINK_GetHWStatus(...)  returns 0x00 (0001ms, 0688ms total)
T4E4C 001:274 JLINK_GetNumBPUnits(Type = 0xFFFFFF00)  returns 0x06 (0000ms, 0688ms total)
T4E4C 001:274 JLINK_GetNumBPUnits(Type = 0xF0)  returns 0x2000 (0000ms, 0688ms total)
T4E4C 001:274 JLINK_GetNumWPUnits()  returns 0x04 (0000ms, 0688ms total)
T4E4C 001:303 JLINK_GetSpeed()  returns 0x1388 (0000ms, 0688ms total)
T4E4C 001:315 JLINK_ReadMemU32(0xE000E004, 0x0001 Items, ...) -- CPU_ReadMem(4 bytes @ 0xE000E004) -- Data:  01 00 00 00  returns 0x01 (0001ms, 0689ms total)
T4E4C 001:316 JLINK_ReadMemU32(0xE000E004, 0x0001 Items, ...) -- CPU_ReadMem(4 bytes @ 0xE000E004) -- Data:  01 00 00 00  returns 0x01 (0000ms, 0689ms total)
T4E4C 001:316 JLINK_WriteMem(0xE0001000, 0x001C Bytes, ...) -- Data:  01 00 00 00 00 00 00 00 00 00 00 00 00 00 00 00 ... -- CPU_WriteMem(28 bytes @ 0xE0001000)  returns 0x1C (0001ms, 0690ms total)
T4E4C 001:317 JLINK_ReadMem (0xE0001000, 0x001C Bytes, ...) -- CPU_ReadMem(28 bytes @ 0xE0001000) -- Data:  01 00 00 40 00 00 00 00 00 00 00 00 00 00 00 00 ...  returns 0x00 (0000ms, 0690ms total)
T4E4C 001:317 JLINK_Halt()  returns 0x00 (0000ms, 0690ms total)
T4E4C 001:317 JLINK_IsHalted()  returns TRUE (0000ms, 0690ms total)
T4E4C 001:321 JLINK_WriteMem(0x20000000, 0x0164 Bytes, ...) -- Data:  00 BE 0A E0 0D 78 2D 06 68 40 08 24 40 00 00 D3 ... -- CPU_WriteMem(356 bytes @ 0x20000000)  returns 0x164 (0003ms, 0693ms total)
T4E4C 001:324 JLINK_WriteReg(R0, 0x08000000)  returns 0x00 (0000ms, 0693ms total)
T4E4C 001:324 JLINK_WriteReg(R1, 0x00B71B00)  returns 0x00 (0000ms, 0693ms total)
T4E4C 001:324 JLINK_WriteReg(R2, 0x00000001)  returns 0x00 (0000ms, 0693ms total)
T4E4C 001:324 JLINK_WriteReg(R3, 0x00000000)  returns 0x00 (0000ms, 0693ms total)
T4E4C 001:324 JLINK_WriteReg(R4, 0x00000000)  returns 0x00 (0000ms, 0693ms total)
T4E4C 001:325 JLINK_WriteReg(R5, 0x00000000)  returns 0x00 (0000ms, 0694ms total)
T4E4C 001:325 JLINK_WriteReg(R6, 0x00000000)  returns 0x00 (0000ms, 0694ms total)
T4E4C 001:325 JLINK_WriteReg(R7, 0x00000000)  returns 0x00 (0000ms, 0694ms total)
T4E4C 001:325 JLINK_WriteReg(R8, 0x00000000)  returns 0x00 (0000ms, 0694ms total)
T4E4C 001:325 JLINK_WriteReg(R9, 0x20000160)  returns 0x00 (0000ms, 0694ms total)
T4E4C 001:325 JLINK_WriteReg(R10, 0x00000000)  returns 0x00 (0000ms, 0694ms total)
T4E4C 001:325 JLINK_WriteReg(R11, 0x00000000)  returns 0x00 (0000ms, 0694ms total)
T4E4C 001:325 JLINK_WriteReg(R12, 0x00000000)  returns 0x00 (0000ms, 0694ms total)
T4E4C 001:325 JLINK_WriteReg(R13 (SP), 0x20000800)  returns 0x00 (0000ms, 0694ms total)
T4E4C 001:325 JLINK_WriteReg(R14, 0x20000001)  returns 0x00 (0000ms, 0694ms total)
T4E4C 001:325 JLINK_WriteReg(R15 (PC), 0x20000038)  returns 0x00 (0000ms, 0694ms total)
T4E4C 001:325 JLINK_WriteReg(XPSR, 0x01000000)  returns 0x00 (0000ms, 0694ms total)
T4E4C 001:325 JLINK_WriteReg(MSP, 0x20000800)  returns 0x00 (0000ms, 0694ms total)
T4E4C 001:325 JLINK_WriteReg(PSP, 0x20000800)  returns 0x00 (0000ms, 0694ms total)
T4E4C 001:325 JLINK_WriteReg(CFBP, 0x00000000)  returns 0x00 (0000ms, 0694ms total)
T4E4C 001:325 JLINK_SetBPEx(Addr = 0x20000000, Type = 0xFFFFFFF2) -- CPU_ReadMem(2 bytes @ 0x20000000)  returns 0x00000001 (0001ms, 0695ms total)
T4E4C 001:326 JLINK_Go() -- CPU_WriteMem(2 bytes @ 0x20000000) -- CPU_WriteMem(4 bytes @ 0xE0002008) -- CPU_WriteMem(4 bytes @ 0xE000200C) -- CPU_WriteMem(4 bytes @ 0xE0002010) -- CPU_WriteMem(4 bytes @ 0xE0002014) -- CPU_WriteMem(4 bytes @ 0xE0002018) -- CPU_WriteMem(4 bytes @ 0xE000201C) -- CPU_WriteMem(4 bytes @ 0xE0001004) (0004ms, 0699ms total)
T4E4C 001:330 JLINK_IsHalted() -- CPU_ReadMem(2 bytes @ 0x20000000)  returns TRUE (0003ms, 0702ms total)
T4E4C 001:333 JLINK_ReadReg(R15 (PC))  returns 0x20000000 (0000ms, 0699ms total)
T4E4C 001:333 JLINK_ClrBPEx(BPHandle = 0x00000001)  returns 0x00 (0000ms, 0699ms total)
T4E4C 001:333 JLINK_ReadReg(R0)  returns 0x00000000 (0000ms, 0699ms total)
T4E4C 001:334 JLINK_WriteReg(R0, 0x08000000)  returns 0x00 (0000ms, 0699ms total)
T4E4C 001:334 JLINK_WriteReg(R1, 0x00B71B00)  returns 0x00 (0000ms, 0699ms total)
T4E4C 001:334 JLINK_WriteReg(R2, 0x00000001)  returns 0x00 (0000ms, 0699ms total)
T4E4C 001:334 JLINK_WriteReg(R3, 0x00000000)  returns 0x00 (0000ms, 0699ms total)
T4E4C 001:334 JLINK_WriteReg(R4, 0x00000000)  returns 0x00 (0000ms, 0699ms total)
T4E4C 001:334 JLINK_WriteReg(R5, 0x00000000)  returns 0x00 (0000ms, 0699ms total)
T4E4C 001:334 JLINK_WriteReg(R6, 0x00000000)  returns 0x00 (0000ms, 0699ms total)
T4E4C 001:334 JLINK_WriteReg(R7, 0x00000000)  returns 0x00 (0000ms, 0699ms total)
T4E4C 001:334 JLINK_WriteReg(R8, 0x00000000)  returns 0x00 (0000ms, 0699ms total)
T4E4C 001:334 JLINK_WriteReg(R9, 0x20000160)  returns 0x00 (0000ms, 0699ms total)
T4E4C 001:334 JLINK_WriteReg(R10, 0x00000000)  returns 0x00 (0000ms, 0699ms total)
T4E4C 001:334 JLINK_WriteReg(R11, 0x00000000)  returns 0x00 (0000ms, 0699ms total)
T4E4C 001:334 JLINK_WriteReg(R12, 0x00000000)  returns 0x00 (0000ms, 0699ms total)
T4E4C 001:334 JLINK_WriteReg(R13 (SP), 0x20000800)  returns 0x00 (0000ms, 0699ms total)
T4E4C 001:334 JLINK_WriteReg(R14, 0x20000001)  returns 0x00 (0000ms, 0699ms total)
T4E4C 001:334 JLINK_WriteReg(R15 (PC), 0x2000007C)  returns 0x00 (0000ms, 0699ms total)
T4E4C 001:334 JLINK_WriteReg(XPSR, 0x01000000)  returns 0x00 (0000ms, 0699ms total)
T4E4C 001:334 JLINK_WriteReg(MSP, 0x20000800)  returns 0x00 (0000ms, 0699ms total)
T4E4C 001:334 JLINK_WriteReg(PSP, 0x20000800)  returns 0x00 (0000ms, 0699ms total)
T4E4C 001:334 JLINK_WriteReg(CFBP, 0x00000000)  returns 0x00 (0002ms, 0701ms total)
T4E4C 001:336 JLINK_SetBPEx(Addr = 0x20000000, Type = 0xFFFFFFF2)  returns 0x00000002 (0000ms, 0701ms total)
T4E4C 001:336 JLINK_Go() (0001ms, 0702ms total)
T4E4C 001:337 JLINK_IsHalted()  returns FALSE (0001ms, 0703ms total)
T4E4C 001:654 JLINK_IsHalted() -- CPU_ReadMem(2 bytes @ 0x20000000)  returns TRUE (0002ms, 0704ms total)
T4E4C 001:656 JLINK_ReadReg(R15 (PC))  returns 0x20000000 (0000ms, 0702ms total)
T4E4C 001:656 JLINK_ClrBPEx(BPHandle = 0x00000002)  returns 0x00 (0000ms, 0702ms total)
T4E4C 001:656 JLINK_ReadReg(R0)  returns 0x00000000 (0001ms, 0703ms total)
T4E4C 001:713 JLINK_WriteReg(R0, 0x00000001)  returns 0x00 (0000ms, 0703ms total)
T4E4C 001:713 JLINK_WriteReg(R1, 0x00B71B00)  returns 0x00 (0000ms, 0703ms total)
T4E4C 001:713 JLINK_WriteReg(R2, 0x00000001)  returns 0x00 (0000ms, 0703ms total)
T4E4C 001:713 JLINK_WriteReg(R3, 0x00000000)  returns 0x00 (0000ms, 0703ms total)
T4E4C 001:713 JLINK_WriteReg(R4, 0x00000000)  returns 0x00 (0000ms, 0703ms total)
T4E4C 001:713 JLINK_WriteReg(R5, 0x00000000)  returns 0x00 (0001ms, 0704ms total)
T4E4C 001:714 JLINK_WriteReg(R6, 0x00000000)  returns 0x00 (0000ms, 0704ms total)
T4E4C 001:714 JLINK_WriteReg(R7, 0x00000000)  returns 0x00 (0000ms, 0704ms total)
T4E4C 001:714 JLINK_WriteReg(R8, 0x00000000)  returns 0x00 (0000ms, 0704ms total)
T4E4C 001:714 JLINK_WriteReg(R9, 0x20000160)  returns 0x00 (0000ms, 0704ms total)
T4E4C 001:714 JLINK_WriteReg(R10, 0x00000000)  returns 0x00 (0000ms, 0704ms total)
T4E4C 001:714 JLINK_WriteReg(R11, 0x00000000)  returns 0x00 (0000ms, 0704ms total)
T4E4C 001:714 JLINK_WriteReg(R12, 0x00000000)  returns 0x00 (0001ms, 0705ms total)
T4E4C 001:715 JLINK_WriteReg(R13 (SP), 0x20000800)  returns 0x00 (0000ms, 0705ms total)
T4E4C 001:715 JLINK_WriteReg(R14, 0x20000001)  returns 0x00 (0000ms, 0705ms total)
T4E4C 001:715 JLINK_WriteReg(R15 (PC), 0x2000006A)  returns 0x00 (0000ms, 0705ms total)
T4E4C 001:715 JLINK_WriteReg(XPSR, 0x01000000)  returns 0x00 (0000ms, 0705ms total)
T4E4C 001:715 JLINK_WriteReg(MSP, 0x20000800)  returns 0x00 (0000ms, 0705ms total)
T4E4C 001:715 JLINK_WriteReg(PSP, 0x20000800)  returns 0x00 (0000ms, 0705ms total)
T4E4C 001:715 JLINK_WriteReg(CFBP, 0x00000000)  returns 0x00 (0000ms, 0705ms total)
T4E4C 001:715 JLINK_SetBPEx(Addr = 0x20000000, Type = 0xFFFFFFF2)  returns 0x00000003 (0001ms, 0706ms total)
T4E4C 001:716 JLINK_Go() (0001ms, 0707ms total)
T4E4C 001:717 JLINK_IsHalted() -- CPU_ReadMem(2 bytes @ 0x20000000)  returns TRUE (0004ms, 0711ms total)
T4E4C 001:721 JLINK_ReadReg(R15 (PC))  returns 0x20000000 (0000ms, 0707ms total)
T4E4C 001:721 JLINK_ClrBPEx(BPHandle = 0x00000003)  returns 0x00 (0000ms, 0707ms total)
T4E4C 001:721 JLINK_ReadReg(R0)  returns 0x00000000 (0000ms, 0707ms total)
T4E4C 001:783 JLINK_WriteMem(0x20000000, 0x0164 Bytes, ...) -- Data:  00 BE 0A E0 0D 78 2D 06 68 40 08 24 40 00 00 D3 ... -- CPU_WriteMem(356 bytes @ 0x20000000)  returns 0x164 (0003ms, 0710ms total)
T4E4C 001:786 JLINK_WriteReg(R0, 0x08000000)  returns 0x00 (0000ms, 0710ms total)
T4E4C 001:786 JLINK_WriteReg(R1, 0x00B71B00)  returns 0x00 (0000ms, 0710ms total)
T4E4C 001:786 JLINK_WriteReg(R2, 0x00000002)  returns 0x00 (0000ms, 0710ms total)
T4E4C 001:786 JLINK_WriteReg(R3, 0x00000000)  returns 0x00 (0000ms, 0710ms total)
T4E4C 001:786 JLINK_WriteReg(R4, 0x00000000)  returns 0x00 (0000ms, 0710ms total)
T4E4C 001:786 JLINK_WriteReg(R5, 0x00000000)  returns 0x00 (0000ms, 0710ms total)
T4E4C 001:786 JLINK_WriteReg(R6, 0x00000000)  returns 0x00 (0001ms, 0711ms total)
T4E4C 001:787 JLINK_WriteReg(R7, 0x00000000)  returns 0x00 (0000ms, 0711ms total)
T4E4C 001:787 JLINK_WriteReg(R8, 0x00000000)  returns 0x00 (0000ms, 0711ms total)
T4E4C 001:787 JLINK_WriteReg(R9, 0x20000160)  returns 0x00 (0000ms, 0711ms total)
T4E4C 001:787 JLINK_WriteReg(R10, 0x00000000)  returns 0x00 (0000ms, 0711ms total)
T4E4C 001:787 JLINK_WriteReg(R11, 0x00000000)  returns 0x00 (0000ms, 0711ms total)
T4E4C 001:787 JLINK_WriteReg(R12, 0x00000000)  returns 0x00 (0000ms, 0711ms total)
T4E4C 001:787 JLINK_WriteReg(R13 (SP), 0x20000800)  returns 0x00 (0000ms, 0711ms total)
T4E4C 001:787 JLINK_WriteReg(R14, 0x20000001)  returns 0x00 (0000ms, 0711ms total)
T4E4C 001:787 JLINK_WriteReg(R15 (PC), 0x20000038)  returns 0x00 (0000ms, 0711ms total)
T4E4C 001:787 JLINK_WriteReg(XPSR, 0x01000000)  returns 0x00 (0000ms, 0711ms total)
T4E4C 001:787 JLINK_WriteReg(MSP, 0x20000800)  returns 0x00 (0000ms, 0711ms total)
T4E4C 001:787 JLINK_WriteReg(PSP, 0x20000800)  returns 0x00 (0000ms, 0711ms total)
T4E4C 001:787 JLINK_WriteReg(CFBP, 0x00000000)  returns 0x00 (0000ms, 0711ms total)
T4E4C 001:787 JLINK_SetBPEx(Addr = 0x20000000, Type = 0xFFFFFFF2) -- CPU_ReadMem(2 bytes @ 0x20000000)  returns 0x00000004 (0001ms, 0712ms total)
T4E4C 001:788 JLINK_Go() -- CPU_WriteMem(2 bytes @ 0x20000000) (0001ms, 0713ms total)
T4E4C 001:789 JLINK_IsHalted() -- CPU_ReadMem(2 bytes @ 0x20000000)  returns TRUE (0003ms, 0716ms total)
T4E4C 001:792 JLINK_ReadReg(R15 (PC))  returns 0x20000000 (0000ms, 0713ms total)
T4E4C 001:792 JLINK_ClrBPEx(BPHandle = 0x00000004)  returns 0x00 (0000ms, 0713ms total)
T4E4C 001:792 JLINK_ReadReg(R0)  returns 0x00000000 (0000ms, 0713ms total)
T4E4C 001:792 JLINK_WriteMem(0x20000164, 0x0400 Bytes, ...) -- Data:  A0 05 00 20 45 01 00 08 91 19 00 08 27 1A 00 08 ... -- CPU_WriteMem(1024 bytes @ 0x20000164)  returns 0x400 (0007ms, 0720ms total)
T4E4C 001:799 JLINK_WriteReg(R0, 0x08000000)  returns 0x00 (0000ms, 0720ms total)
T4E4C 001:799 JLINK_WriteReg(R1, 0x00000400)  returns 0x00 (0000ms, 0720ms total)
T4E4C 001:799 JLINK_WriteReg(R2, 0x20000164)  returns 0x00 (0000ms, 0720ms total)
T4E4C 001:799 JLINK_WriteReg(R3, 0x00000000)  returns 0x00 (0000ms, 0720ms total)
T4E4C 001:799 JLINK_WriteReg(R4, 0x00000000)  returns 0x00 (0000ms, 0720ms total)
T4E4C 001:799 JLINK_WriteReg(R5, 0x00000000)  returns 0x00 (0000ms, 0720ms total)
T4E4C 001:799 JLINK_WriteReg(R6, 0x00000000)  returns 0x00 (0000ms, 0720ms total)
T4E4C 001:799 JLINK_WriteReg(R7, 0x00000000)  returns 0x00 (0000ms, 0720ms total)
T4E4C 001:799 JLINK_WriteReg(R8, 0x00000000)  returns 0x00 (0000ms, 0720ms total)
T4E4C 001:799 JLINK_WriteReg(R9, 0x20000160)  returns 0x00 (0001ms, 0721ms total)
T4E4C 001:800 JLINK_WriteReg(R10, 0x00000000)  returns 0x00 (0000ms, 0721ms total)
T4E4C 001:800 JLINK_WriteReg(R11, 0x00000000)  returns 0x00 (0000ms, 0721ms total)
T4E4C 001:800 JLINK_WriteReg(R12, 0x00000000)  returns 0x00 (0000ms, 0721ms total)
T4E4C 001:800 JLINK_WriteReg(R13 (SP), 0x20000800)  returns 0x00 (0000ms, 0721ms total)
T4E4C 001:800 JLINK_WriteReg(R14, 0x20000001)  returns 0x00 (0000ms, 0721ms total)
T4E4C 001:800 JLINK_WriteReg(R15 (PC), 0x200000F4)  returns 0x00 (0000ms, 0721ms total)
T4E4C 001:800 JLINK_WriteReg(XPSR, 0x01000000)  returns 0x00 (0000ms, 0721ms total)
T4E4C 001:800 JLINK_WriteReg(MSP, 0x20000800)  returns 0x00 (0000ms, 0721ms total)
T4E4C 001:800 JLINK_WriteReg(PSP, 0x20000800)  returns 0x00 (0000ms, 0721ms total)
T4E4C 001:800 JLINK_WriteReg(CFBP, 0x00000000)  returns 0x00 (0000ms, 0721ms total)
T4E4C 001:800 JLINK_SetBPEx(Addr = 0x20000000, Type = 0xFFFFFFF2)  returns 0x00000005 (0001ms, 0722ms total)
T4E4C 001:801 JLINK_Go() (0002ms, 0724ms total)
T4E4C 001:803 JLINK_IsHalted()  returns FALSE (0000ms, 0724ms total)
T4E4C 001:905 JLINK_IsHalted() -- CPU_ReadMem(2 bytes @ 0x20000000)  returns TRUE (0002ms, 0726ms total)
T4E4C 001:907 JLINK_ReadReg(R15 (PC))  returns 0x20000000 (0000ms, 0724ms total)
T4E4C 001:907 JLINK_ClrBPEx(BPHandle = 0x00000005)  returns 0x00 (0001ms, 0725ms total)
T4E4C 001:908 JLINK_ReadReg(R0)  returns 0x00000000 (0000ms, 0725ms total)
T4E4C 001:909 JLINK_WriteMem(0x20000164, 0x0400 Bytes, ...) -- Data:  09 69 21 F0 04 01 4F F0 E0 22 11 61 70 47 00 00 ... -- CPU_WriteMem(1024 bytes @ 0x20000164)  returns 0x400 (0006ms, 0731ms total)
T4E4C 001:915 JLINK_WriteReg(R0, 0x08000400)  returns 0x00 (0000ms, 0731ms total)
T4E4C 001:915 JLINK_WriteReg(R1, 0x00000400)  returns 0x00 (0000ms, 0731ms total)
T4E4C 001:915 JLINK_WriteReg(R2, 0x20000164)  returns 0x00 (0000ms, 0731ms total)
T4E4C 001:915 JLINK_WriteReg(R3, 0x00000000)  returns 0x00 (0000ms, 0731ms total)
T4E4C 001:915 JLINK_WriteReg(R4, 0x00000000)  returns 0x00 (0000ms, 0731ms total)
T4E4C 001:915 JLINK_WriteReg(R5, 0x00000000)  returns 0x00 (0000ms, 0731ms total)
T4E4C 001:915 JLINK_WriteReg(R6, 0x00000000)  returns 0x00 (0001ms, 0732ms total)
T4E4C 001:916 JLINK_WriteReg(R7, 0x00000000)  returns 0x00 (0000ms, 0732ms total)
T4E4C 001:916 JLINK_WriteReg(R8, 0x00000000)  returns 0x00 (0000ms, 0732ms total)
T4E4C 001:916 JLINK_WriteReg(R9, 0x20000160)  returns 0x00 (0000ms, 0732ms total)
T4E4C 001:916 JLINK_WriteReg(R10, 0x00000000)  returns 0x00 (0000ms, 0732ms total)
T4E4C 001:916 JLINK_WriteReg(R11, 0x00000000)  returns 0x00 (0000ms, 0732ms total)
T4E4C 001:916 JLINK_WriteReg(R12, 0x00000000)  returns 0x00 (0000ms, 0732ms total)
T4E4C 001:916 JLINK_WriteReg(R13 (SP), 0x20000800)  returns 0x00 (0000ms, 0732ms total)
T4E4C 001:916 JLINK_WriteReg(R14, 0x20000001)  returns 0x00 (0000ms, 0732ms total)
T4E4C 001:916 JLINK_WriteReg(R15 (PC), 0x200000F4)  returns 0x00 (0000ms, 0732ms total)
T4E4C 001:916 JLINK_WriteReg(XPSR, 0x01000000)  returns 0x00 (0001ms, 0733ms total)
T4E4C 001:917 JLINK_WriteReg(MSP, 0x20000800)  returns 0x00 (0000ms, 0733ms total)
T4E4C 001:917 JLINK_WriteReg(PSP, 0x20000800)  returns 0x00 (0000ms, 0733ms total)
T4E4C 001:917 JLINK_WriteReg(CFBP, 0x00000000)  returns 0x00 (0000ms, 0733ms total)
T4E4C 001:917 JLINK_SetBPEx(Addr = 0x20000000, Type = 0xFFFFFFF2)  returns 0x00000006 (0000ms, 0733ms total)
T4E4C 001:917 JLINK_Go() (0001ms, 0734ms total)
T4E4C 001:919 JLINK_IsHalted()  returns FALSE (0000ms, 0735ms total)
T4E4C 002:124 JLINK_IsHalted() -- CPU_ReadMem(2 bytes @ 0x20000000)  returns TRUE (0002ms, 0737ms total)
T4E4C 002:126 JLINK_ReadReg(R15 (PC))  returns 0x20000000 (0000ms, 0735ms total)
T4E4C 002:126 JLINK_ClrBPEx(BPHandle = 0x00000006)  returns 0x00 (0000ms, 0735ms total)
T4E4C 002:127 JLINK_ReadReg(R0)  returns 0x00000000 (0000ms, 0736ms total)
T4E4C 002:130 JLINK_WriteMem(0x20000164, 0x0400 Bytes, ...) -- Data:  0C 34 23 60 30 BD 01 68 41 F0 10 01 42 68 41 EA ... -- CPU_WriteMem(1024 bytes @ 0x20000164)  returns 0x400 (0005ms, 0741ms total)
T4E4C 002:135 JLINK_WriteReg(R0, 0x08000800)  returns 0x00 (0001ms, 0742ms total)
T4E4C 002:136 JLINK_WriteReg(R1, 0x00000400)  returns 0x00 (0000ms, 0742ms total)
T4E4C 002:136 JLINK_WriteReg(R2, 0x20000164)  returns 0x00 (0000ms, 0742ms total)
T4E4C 002:136 JLINK_WriteReg(R3, 0x00000000)  returns 0x00 (0000ms, 0742ms total)
T4E4C 002:136 JLINK_WriteReg(R4, 0x00000000)  returns 0x00 (0000ms, 0742ms total)
T4E4C 002:136 JLINK_WriteReg(R5, 0x00000000)  returns 0x00 (0000ms, 0742ms total)
T4E4C 002:136 JLINK_WriteReg(R6, 0x00000000)  returns 0x00 (0000ms, 0742ms total)
T4E4C 002:136 JLINK_WriteReg(R7, 0x00000000)  returns 0x00 (0000ms, 0742ms total)
T4E4C 002:136 JLINK_WriteReg(R8, 0x00000000)  returns 0x00 (0000ms, 0742ms total)
T4E4C 002:136 JLINK_WriteReg(R9, 0x20000160)  returns 0x00 (0000ms, 0742ms total)
T4E4C 002:136 JLINK_WriteReg(R10, 0x00000000)  returns 0x00 (0000ms, 0742ms total)
T4E4C 002:136 JLINK_WriteReg(R11, 0x00000000)  returns 0x00 (0000ms, 0742ms total)
T4E4C 002:136 JLINK_WriteReg(R12, 0x00000000)  returns 0x00 (0000ms, 0742ms total)
T4E4C 002:136 JLINK_WriteReg(R13 (SP), 0x20000800)  returns 0x00 (0001ms, 0743ms total)
T4E4C 002:137 JLINK_WriteReg(R14, 0x20000001)  returns 0x00 (0000ms, 0743ms total)
T4E4C 002:137 JLINK_WriteReg(R15 (PC), 0x200000F4)  returns 0x00 (0000ms, 0743ms total)
T4E4C 002:137 JLINK_WriteReg(XPSR, 0x01000000)  returns 0x00 (0000ms, 0743ms total)
T4E4C 002:137 JLINK_WriteReg(MSP, 0x20000800)  returns 0x00 (0000ms, 0743ms total)
T4E4C 002:137 JLINK_WriteReg(PSP, 0x20000800)  returns 0x00 (0000ms, 0743ms total)
T4E4C 002:137 JLINK_WriteReg(CFBP, 0x00000000)  returns 0x00 (0000ms, 0743ms total)
T4E4C 002:137 JLINK_SetBPEx(Addr = 0x20000000, Type = 0xFFFFFFF2)  returns 0x00000007 (0000ms, 0743ms total)
T4E4C 002:137 JLINK_Go() (0001ms, 0744ms total)
T4E4C 002:138 JLINK_IsHalted()  returns FALSE (0001ms, 0745ms total)
T4E4C 002:151 JLINK_IsHalted()  returns FALSE (0001ms, 0745ms total)
T4E4C 002:154 JLINK_IsHalted()  returns FALSE (0000ms, 0744ms total)
T4E4C 002:155 JLINK_IsHalted()  returns FALSE (0000ms, 0744ms total)
T4E4C 002:157 JLINK_IsHalted()  returns FALSE (0000ms, 0744ms total)
T4E4C 002:233 JLINK_IsHalted() -- CPU_ReadMem(2 bytes @ 0x20000000)  returns TRUE (0003ms, 0747ms total)
T4E4C 002:236 JLINK_ReadReg(R15 (PC))  returns 0x20000000 (0000ms, 0744ms total)
T4E4C 002:236 JLINK_ClrBPEx(BPHandle = 0x00000007)  returns 0x00 (0000ms, 0744ms total)
T4E4C 002:236 JLINK_ReadReg(R0)  returns 0x00000000 (0000ms, 0744ms total)
T4E4C 002:237 JLINK_WriteMem(0x20000164, 0x0400 Bytes, ...) -- Data:  C3 F8 A4 20 70 47 00 00 80 00 00 A0 BF FF 0F 00 ... -- CPU_WriteMem(1024 bytes @ 0x20000164)  returns 0x400 (0006ms, 0750ms total)
T4E4C 002:243 JLINK_WriteReg(R0, 0x08000C00)  returns 0x00 (0000ms, 0750ms total)
T4E4C 002:243 JLINK_WriteReg(R1, 0x00000400)  returns 0x00 (0000ms, 0750ms total)
T4E4C 002:243 JLINK_WriteReg(R2, 0x20000164)  returns 0x00 (0000ms, 0750ms total)
T4E4C 002:243 JLINK_WriteReg(R3, 0x00000000)  returns 0x00 (0000ms, 0750ms total)
T4E4C 002:243 JLINK_WriteReg(R4, 0x00000000)  returns 0x00 (0001ms, 0751ms total)
T4E4C 002:244 JLINK_WriteReg(R5, 0x00000000)  returns 0x00 (0000ms, 0751ms total)
T4E4C 002:244 JLINK_WriteReg(R6, 0x00000000)  returns 0x00 (0000ms, 0751ms total)
T4E4C 002:244 JLINK_WriteReg(R7, 0x00000000)  returns 0x00 (0000ms, 0751ms total)
T4E4C 002:244 JLINK_WriteReg(R8, 0x00000000)  returns 0x00 (0000ms, 0751ms total)
T4E4C 002:244 JLINK_WriteReg(R9, 0x20000160)  returns 0x00 (0000ms, 0751ms total)
T4E4C 002:244 JLINK_WriteReg(R10, 0x00000000)  returns 0x00 (0000ms, 0751ms total)
T4E4C 002:244 JLINK_WriteReg(R11, 0x00000000)  returns 0x00 (0000ms, 0751ms total)
T4E4C 002:244 JLINK_WriteReg(R12, 0x00000000)  returns 0x00 (0000ms, 0751ms total)
T4E4C 002:244 JLINK_WriteReg(R13 (SP), 0x20000800)  returns 0x00 (0000ms, 0751ms total)
T4E4C 002:244 JLINK_WriteReg(R14, 0x20000001)  returns 0x00 (0000ms, 0751ms total)
T4E4C 002:245 JLINK_WriteReg(R15 (PC), 0x200000F4)  returns 0x00 (0000ms, 0752ms total)
T4E4C 002:245 JLINK_WriteReg(XPSR, 0x01000000)  returns 0x00 (0000ms, 0752ms total)
T4E4C 002:245 JLINK_WriteReg(MSP, 0x20000800)  returns 0x00 (0000ms, 0752ms total)
T4E4C 002:245 JLINK_WriteReg(PSP, 0x20000800)  returns 0x00 (0000ms, 0752ms total)
T4E4C 002:245 JLINK_WriteReg(CFBP, 0x00000000)  returns 0x00 (0000ms, 0752ms total)
T4E4C 002:245 JLINK_SetBPEx(Addr = 0x20000000, Type = 0xFFFFFFF2)  returns 0x00000008 (0000ms, 0752ms total)
T4E4C 002:245 JLINK_Go() (0002ms, 0754ms total)
T4E4C 002:247 JLINK_IsHalted()  returns FALSE (0001ms, 0755ms total)
T4E4C 002:353 JLINK_IsHalted() -- CPU_ReadMem(2 bytes @ 0x20000000)  returns TRUE (0002ms, 0756ms total)
T4E4C 002:355 JLINK_ReadReg(R15 (PC))  returns 0x20000000 (0000ms, 0754ms total)
T4E4C 002:356 JLINK_ClrBPEx(BPHandle = 0x00000008)  returns 0x00 (0000ms, 0755ms total)
T4E4C 002:356 JLINK_ReadReg(R0)  returns 0x00000000 (0000ms, 0755ms total)
T4E4C 002:357 JLINK_WriteMem(0x20000164, 0x0400 Bytes, ...) -- Data:  00 BF 00 BF 30 BF 70 47 01 46 00 20 08 4A 52 68 ... -- CPU_WriteMem(1024 bytes @ 0x20000164)  returns 0x400 (0006ms, 0761ms total)
T4E4C 002:363 JLINK_WriteReg(R0, 0x08001000)  returns 0x00 (0000ms, 0761ms total)
T4E4C 002:363 JLINK_WriteReg(R1, 0x00000400)  returns 0x00 (0000ms, 0761ms total)
T4E4C 002:363 JLINK_WriteReg(R2, 0x20000164)  returns 0x00 (0000ms, 0761ms total)
T4E4C 002:363 JLINK_WriteReg(R3, 0x00000000)  returns 0x00 (0001ms, 0762ms total)
T4E4C 002:364 JLINK_WriteReg(R4, 0x00000000)  returns 0x00 (0000ms, 0762ms total)
T4E4C 002:364 JLINK_WriteReg(R5, 0x00000000)  returns 0x00 (0000ms, 0762ms total)
T4E4C 002:364 JLINK_WriteReg(R6, 0x00000000)  returns 0x00 (0000ms, 0762ms total)
T4E4C 002:364 JLINK_WriteReg(R7, 0x00000000)  returns 0x00 (0000ms, 0762ms total)
T4E4C 002:364 JLINK_WriteReg(R8, 0x00000000)  returns 0x00 (0000ms, 0762ms total)
T4E4C 002:364 JLINK_WriteReg(R9, 0x20000160)  returns 0x00 (0000ms, 0762ms total)
T4E4C 002:364 JLINK_WriteReg(R10, 0x00000000)  returns 0x00 (0000ms, 0762ms total)
T4E4C 002:364 JLINK_WriteReg(R11, 0x00000000)  returns 0x00 (0000ms, 0762ms total)
T4E4C 002:364 JLINK_WriteReg(R12, 0x00000000)  returns 0x00 (0000ms, 0762ms total)
T4E4C 002:364 JLINK_WriteReg(R13 (SP), 0x20000800)  returns 0x00 (0000ms, 0762ms total)
T4E4C 002:364 JLINK_WriteReg(R14, 0x20000001)  returns 0x00 (0001ms, 0763ms total)
T4E4C 002:365 JLINK_WriteReg(R15 (PC), 0x200000F4)  returns 0x00 (0000ms, 0763ms total)
T4E4C 002:365 JLINK_WriteReg(XPSR, 0x01000000)  returns 0x00 (0000ms, 0763ms total)
T4E4C 002:365 JLINK_WriteReg(MSP, 0x20000800)  returns 0x00 (0000ms, 0763ms total)
T4E4C 002:365 JLINK_WriteReg(PSP, 0x20000800)  returns 0x00 (0000ms, 0763ms total)
T4E4C 002:365 JLINK_WriteReg(CFBP, 0x00000000)  returns 0x00 (0000ms, 0763ms total)
T4E4C 002:365 JLINK_SetBPEx(Addr = 0x20000000, Type = 0xFFFFFFF2)  returns 0x00000009 (0000ms, 0763ms total)
T4E4C 002:365 JLINK_Go() (0002ms, 0765ms total)
T4E4C 002:367 JLINK_IsHalted()  returns FALSE (0000ms, 0765ms total)
T4E4C 002:450 JLINK_IsHalted() -- CPU_ReadMem(2 bytes @ 0x20000000)  returns TRUE (0002ms, 0767ms total)
T4E4C 002:452 JLINK_ReadReg(R15 (PC))  returns 0x20000000 (0000ms, 0765ms total)
T4E4C 002:452 JLINK_ClrBPEx(BPHandle = 0x00000009)  returns 0x00 (0000ms, 0765ms total)
T4E4C 002:452 JLINK_ReadReg(R0)  returns 0x00000000 (0000ms, 0765ms total)
T4E4C 002:454 JLINK_WriteMem(0x20000164, 0x0400 Bytes, ...) -- Data:  47 49 09 1D 08 80 70 47 45 48 00 1D 00 88 4F F6 ... -- CPU_WriteMem(1024 bytes @ 0x20000164)  returns 0x400 (0006ms, 0771ms total)
T4E4C 002:460 JLINK_WriteReg(R0, 0x08001400)  returns 0x00 (0000ms, 0771ms total)
T4E4C 002:460 JLINK_WriteReg(R1, 0x00000400)  returns 0x00 (0000ms, 0771ms total)
T4E4C 002:460 JLINK_WriteReg(R2, 0x20000164)  returns 0x00 (0000ms, 0771ms total)
T4E4C 002:460 JLINK_WriteReg(R3, 0x00000000)  returns 0x00 (0000ms, 0771ms total)
T4E4C 002:460 JLINK_WriteReg(R4, 0x00000000)  returns 0x00 (0000ms, 0771ms total)
T4E4C 002:460 JLINK_WriteReg(R5, 0x00000000)  returns 0x00 (0000ms, 0771ms total)
T4E4C 002:460 JLINK_WriteReg(R6, 0x00000000)  returns 0x00 (0000ms, 0771ms total)
T4E4C 002:460 JLINK_WriteReg(R7, 0x00000000)  returns 0x00 (0000ms, 0771ms total)
T4E4C 002:460 JLINK_WriteReg(R8, 0x00000000)  returns 0x00 (0000ms, 0771ms total)
T4E4C 002:460 JLINK_WriteReg(R9, 0x20000160)  returns 0x00 (0000ms, 0771ms total)
T4E4C 002:460 JLINK_WriteReg(R10, 0x00000000)  returns 0x00 (0000ms, 0771ms total)
T4E4C 002:460 JLINK_WriteReg(R11, 0x00000000)  returns 0x00 (0000ms, 0771ms total)
T4E4C 002:461 JLINK_WriteReg(R12, 0x00000000)  returns 0x00 (0000ms, 0772ms total)
T4E4C 002:461 JLINK_WriteReg(R13 (SP), 0x20000800)  returns 0x00 (0000ms, 0772ms total)
T4E4C 002:461 JLINK_WriteReg(R14, 0x20000001)  returns 0x00 (0000ms, 0772ms total)
T4E4C 002:461 JLINK_WriteReg(R15 (PC), 0x200000F4)  returns 0x00 (0000ms, 0772ms total)
T4E4C 002:461 JLINK_WriteReg(XPSR, 0x01000000)  returns 0x00 (0000ms, 0772ms total)
T4E4C 002:461 JLINK_WriteReg(MSP, 0x20000800)  returns 0x00 (0000ms, 0772ms total)
T4E4C 002:461 JLINK_WriteReg(PSP, 0x20000800)  returns 0x00 (0000ms, 0772ms total)
T4E4C 002:461 JLINK_WriteReg(CFBP, 0x00000000)  returns 0x00 (0000ms, 0772ms total)
T4E4C 002:461 JLINK_SetBPEx(Addr = 0x20000000, Type = 0xFFFFFFF2)  returns 0x0000000A (0000ms, 0772ms total)
T4E4C 002:461 JLINK_Go() (0002ms, 0774ms total)
T4E4C 002:463 JLINK_IsHalted()  returns FALSE (0000ms, 0774ms total)
T4E4C 002:559 JLINK_IsHalted() -- CPU_ReadMem(2 bytes @ 0x20000000)  returns TRUE (0002ms, 0776ms total)
T4E4C 002:561 JLINK_ReadReg(R15 (PC))  returns 0x20000000 (0001ms, 0775ms total)
T4E4C 002:562 JLINK_ClrBPEx(BPHandle = 0x0000000A)  returns 0x00 (0000ms, 0775ms total)
T4E4C 002:562 JLINK_ReadReg(R0)  returns 0x00000000 (0000ms, 0775ms total)
T4E4C 002:568 JLINK_WriteMem(0x20000164, 0x0400 Bytes, ...) -- Data:  EF 73 1A 40 82 82 70 47 21 B1 82 8A 42 F0 08 02 ... -- CPU_WriteMem(1024 bytes @ 0x20000164)  returns 0x400 (0006ms, 0781ms total)
T4E4C 002:574 JLINK_WriteReg(R0, 0x08001800)  returns 0x00 (0000ms, 0781ms total)
T4E4C 002:574 JLINK_WriteReg(R1, 0x00000400)  returns 0x00 (0000ms, 0781ms total)
T4E4C 002:575 JLINK_WriteReg(R2, 0x20000164)  returns 0x00 (0000ms, 0782ms total)
T4E4C 002:575 JLINK_WriteReg(R3, 0x00000000)  returns 0x00 (0000ms, 0782ms total)
T4E4C 002:575 JLINK_WriteReg(R4, 0x00000000)  returns 0x00 (0000ms, 0782ms total)
T4E4C 002:575 JLINK_WriteReg(R5, 0x00000000)  returns 0x00 (0000ms, 0782ms total)
T4E4C 002:575 JLINK_WriteReg(R6, 0x00000000)  returns 0x00 (0000ms, 0782ms total)
T4E4C 002:575 JLINK_WriteReg(R7, 0x00000000)  returns 0x00 (0000ms, 0782ms total)
T4E4C 002:575 JLINK_WriteReg(R8, 0x00000000)  returns 0x00 (0000ms, 0782ms total)
T4E4C 002:575 JLINK_WriteReg(R9, 0x20000160)  returns 0x00 (0000ms, 0782ms total)
T4E4C 002:575 JLINK_WriteReg(R10, 0x00000000)  returns 0x00 (0000ms, 0782ms total)
T4E4C 002:575 JLINK_WriteReg(R11, 0x00000000)  returns 0x00 (0001ms, 0783ms total)
T4E4C 002:576 JLINK_WriteReg(R12, 0x00000000)  returns 0x00 (0000ms, 0783ms total)
T4E4C 002:576 JLINK_WriteReg(R13 (SP), 0x20000800)  returns 0x00 (0000ms, 0783ms total)
T4E4C 002:576 JLINK_WriteReg(R14, 0x20000001)  returns 0x00 (0000ms, 0783ms total)
T4E4C 002:576 JLINK_WriteReg(R15 (PC), 0x200000F4)  returns 0x00 (0000ms, 0783ms total)
T4E4C 002:576 JLINK_WriteReg(XPSR, 0x01000000)  returns 0x00 (0000ms, 0783ms total)
T4E4C 002:576 JLINK_WriteReg(MSP, 0x20000800)  returns 0x00 (0000ms, 0783ms total)
T4E4C 002:576 JLINK_WriteReg(PSP, 0x20000800)  returns 0x00 (0000ms, 0783ms total)
T4E4C 002:576 JLINK_WriteReg(CFBP, 0x00000000)  returns 0x00 (0000ms, 0783ms total)
T4E4C 002:576 JLINK_SetBPEx(Addr = 0x20000000, Type = 0xFFFFFFF2)  returns 0x0000000B (0000ms, 0783ms total)
T4E4C 002:576 JLINK_Go() (0002ms, 0785ms total)
T4E4C 002:578 JLINK_IsHalted()  returns FALSE (0001ms, 0786ms total)
T4E4C 002:686 JLINK_IsHalted() -- CPU_ReadMem(2 bytes @ 0x20000000)  returns TRUE (0002ms, 0787ms total)
T4E4C 002:688 JLINK_ReadReg(R15 (PC))  returns 0x20000000 (0000ms, 0785ms total)
T4E4C 002:688 JLINK_ClrBPEx(BPHandle = 0x0000000B)  returns 0x00 (0001ms, 0786ms total)
T4E4C 002:689 JLINK_ReadReg(R0)  returns 0x00000000 (0000ms, 0786ms total)
T4E4C 002:693 JLINK_WriteMem(0x20000164, 0x0400 Bytes, ...) -- Data:  3B FE 00 28 F9 D0 BD E8 F0 81 00 00 00 08 01 40 ... -- CPU_WriteMem(1024 bytes @ 0x20000164)  returns 0x400 (0006ms, 0792ms total)
T4E4C 002:699 JLINK_WriteReg(R0, 0x08001C00)  returns 0x00 (0000ms, 0792ms total)
T4E4C 002:699 JLINK_WriteReg(R1, 0x00000400)  returns 0x00 (0000ms, 0792ms total)
T4E4C 002:699 JLINK_WriteReg(R2, 0x20000164)  returns 0x00 (0001ms, 0793ms total)
T4E4C 002:700 JLINK_WriteReg(R3, 0x00000000)  returns 0x00 (0000ms, 0793ms total)
T4E4C 002:700 JLINK_WriteReg(R4, 0x00000000)  returns 0x00 (0000ms, 0793ms total)
T4E4C 002:700 JLINK_WriteReg(R5, 0x00000000)  returns 0x00 (0000ms, 0793ms total)
T4E4C 002:700 JLINK_WriteReg(R6, 0x00000000)  returns 0x00 (0000ms, 0793ms total)
T4E4C 002:700 JLINK_WriteReg(R7, 0x00000000)  returns 0x00 (0000ms, 0793ms total)
T4E4C 002:700 JLINK_WriteReg(R8, 0x00000000)  returns 0x00 (0000ms, 0793ms total)
T4E4C 002:700 JLINK_WriteReg(R9, 0x20000160)  returns 0x00 (0000ms, 0793ms total)
T4E4C 002:700 JLINK_WriteReg(R10, 0x00000000)  returns 0x00 (0000ms, 0793ms total)
T4E4C 002:700 JLINK_WriteReg(R11, 0x00000000)  returns 0x00 (0000ms, 0793ms total)
T4E4C 002:700 JLINK_WriteReg(R12, 0x00000000)  returns 0x00 (0000ms, 0793ms total)
T4E4C 002:700 JLINK_WriteReg(R13 (SP), 0x20000800)  returns 0x00 (0000ms, 0793ms total)
T4E4C 002:700 JLINK_WriteReg(R14, 0x20000001)  returns 0x00 (0000ms, 0793ms total)
T4E4C 002:700 JLINK_WriteReg(R15 (PC), 0x200000F4)  returns 0x00 (0000ms, 0793ms total)
T4E4C 002:700 JLINK_WriteReg(XPSR, 0x01000000)  returns 0x00 (0000ms, 0793ms total)
T4E4C 002:700 JLINK_WriteReg(MSP, 0x20000800)  returns 0x00 (0000ms, 0793ms total)
T4E4C 002:700 JLINK_WriteReg(PSP, 0x20000800)  returns 0x00 (0000ms, 0793ms total)
T4E4C 002:700 JLINK_WriteReg(CFBP, 0x00000000)  returns 0x00 (0000ms, 0793ms total)
T4E4C 002:700 JLINK_SetBPEx(Addr = 0x20000000, Type = 0xFFFFFFF2)  returns 0x0000000C (0000ms, 0793ms total)
T4E4C 002:700 JLINK_Go() (0002ms, 0795ms total)
T4E4C 002:702 JLINK_IsHalted()  returns FALSE (0001ms, 0796ms total)
T4E4C 002:861 JLINK_IsHalted() -- CPU_ReadMem(2 bytes @ 0x20000000)  returns TRUE (0002ms, 0797ms total)
T4E4C 002:863 JLINK_ReadReg(R15 (PC))  returns 0x20000000 (0000ms, 0795ms total)
T4E4C 002:863 JLINK_ClrBPEx(BPHandle = 0x0000000C)  returns 0x00 (0000ms, 0795ms total)
T4E4C 002:863 JLINK_ReadReg(R0)  returns 0x00000000 (0000ms, 0795ms total)
T4E4C 002:865 JLINK_WriteMem(0x20000164, 0x0400 Bytes, ...) -- Data:  CC E4 14 C3 30 00 00 20 00 10 01 40 38 00 00 20 ... -- CPU_WriteMem(1024 bytes @ 0x20000164)  returns 0x400 (0008ms, 0803ms total)
T4E4C 002:873 JLINK_WriteReg(R0, 0x08002000)  returns 0x00 (0000ms, 0803ms total)
T4E4C 002:873 JLINK_WriteReg(R1, 0x00000400)  returns 0x00 (0000ms, 0803ms total)
T4E4C 002:873 JLINK_WriteReg(R2, 0x20000164)  returns 0x00 (0000ms, 0803ms total)
T4E4C 002:873 JLINK_WriteReg(R3, 0x00000000)  returns 0x00 (0000ms, 0803ms total)
T4E4C 002:873 JLINK_WriteReg(R4, 0x00000000)  returns 0x00 (0000ms, 0803ms total)
T4E4C 002:873 JLINK_WriteReg(R5, 0x00000000)  returns 0x00 (0000ms, 0803ms total)
T4E4C 002:873 JLINK_WriteReg(R6, 0x00000000)  returns 0x00 (0000ms, 0803ms total)
T4E4C 002:873 JLINK_WriteReg(R7, 0x00000000)  returns 0x00 (0000ms, 0803ms total)
T4E4C 002:873 JLINK_WriteReg(R8, 0x00000000)  returns 0x00 (0000ms, 0803ms total)
T4E4C 002:873 JLINK_WriteReg(R9, 0x20000160)  returns 0x00 (0000ms, 0803ms total)
T4E4C 002:873 JLINK_WriteReg(R10, 0x00000000)  returns 0x00 (0000ms, 0803ms total)
T4E4C 002:873 JLINK_WriteReg(R11, 0x00000000)  returns 0x00 (0000ms, 0803ms total)
T4E4C 002:873 JLINK_WriteReg(R12, 0x00000000)  returns 0x00 (0000ms, 0803ms total)
T4E4C 002:873 JLINK_WriteReg(R13 (SP), 0x20000800)  returns 0x00 (0000ms, 0803ms total)
T4E4C 002:874 JLINK_WriteReg(R14, 0x20000001)  returns 0x00 (0000ms, 0804ms total)
T4E4C 002:874 JLINK_WriteReg(R15 (PC), 0x200000F4)  returns 0x00 (0000ms, 0804ms total)
T4E4C 002:874 JLINK_WriteReg(XPSR, 0x01000000)  returns 0x00 (0000ms, 0804ms total)
T4E4C 002:874 JLINK_WriteReg(MSP, 0x20000800)  returns 0x00 (0000ms, 0804ms total)
T4E4C 002:874 JLINK_WriteReg(PSP, 0x20000800)  returns 0x00 (0000ms, 0804ms total)
T4E4C 002:874 JLINK_WriteReg(CFBP, 0x00000000)  returns 0x00 (0000ms, 0804ms total)
T4E4C 002:874 JLINK_SetBPEx(Addr = 0x20000000, Type = 0xFFFFFFF2)  returns 0x0000000D (0000ms, 0804ms total)
T4E4C 002:874 JLINK_Go() (0001ms, 0805ms total)
T4E4C 002:875 JLINK_IsHalted()  returns FALSE (0000ms, 0805ms total)
T4E4C 002:899 JLINK_IsHalted()  returns FALSE (0001ms, 0806ms total)
T4E4C 002:901 JLINK_IsHalted()  returns FALSE (0001ms, 0806ms total)
T4E4C 002:904 JLINK_IsHalted()  returns FALSE (0000ms, 0805ms total)
T4E4C 002:905 JLINK_IsHalted()  returns FALSE (0000ms, 0805ms total)
T4E4C 002:907 JLINK_IsHalted() -- CPU_ReadMem(2 bytes @ 0x20000000)  returns TRUE (0002ms, 0807ms total)
T4E4C 002:909 JLINK_ReadReg(R15 (PC))  returns 0x20000000 (0000ms, 0805ms total)
T4E4C 002:909 JLINK_ClrBPEx(BPHandle = 0x0000000D)  returns 0x00 (0000ms, 0805ms total)
T4E4C 002:909 JLINK_ReadReg(R0)  returns 0x00000000 (0001ms, 0806ms total)
T4E4C 002:912 JLINK_WriteMem(0x20000164, 0x0400 Bytes, ...) -- Data:  24 49 C8 80 ED E0 23 48 80 88 A0 B1 19 48 00 69 ... -- CPU_WriteMem(1024 bytes @ 0x20000164)  returns 0x400 (0006ms, 0812ms total)
T4E4C 002:918 JLINK_WriteReg(R0, 0x08002400)  returns 0x00 (0000ms, 0812ms total)
T4E4C 002:919 JLINK_WriteReg(R1, 0x00000400)  returns 0x00 (0000ms, 0813ms total)
T4E4C 002:919 JLINK_WriteReg(R2, 0x20000164)  returns 0x00 (0000ms, 0813ms total)
T4E4C 002:919 JLINK_WriteReg(R3, 0x00000000)  returns 0x00 (0000ms, 0813ms total)
T4E4C 002:919 JLINK_WriteReg(R4, 0x00000000)  returns 0x00 (0000ms, 0813ms total)
T4E4C 002:919 JLINK_WriteReg(R5, 0x00000000)  returns 0x00 (0000ms, 0813ms total)
T4E4C 002:919 JLINK_WriteReg(R6, 0x00000000)  returns 0x00 (0000ms, 0813ms total)
T4E4C 002:919 JLINK_WriteReg(R7, 0x00000000)  returns 0x00 (0000ms, 0813ms total)
T4E4C 002:919 JLINK_WriteReg(R8, 0x00000000)  returns 0x00 (0000ms, 0813ms total)
T4E4C 002:919 JLINK_WriteReg(R9, 0x20000160)  returns 0x00 (0000ms, 0813ms total)
T4E4C 002:919 JLINK_WriteReg(R10, 0x00000000)  returns 0x00 (0000ms, 0813ms total)
T4E4C 002:919 JLINK_WriteReg(R11, 0x00000000)  returns 0x00 (0000ms, 0813ms total)
T4E4C 002:919 JLINK_WriteReg(R12, 0x00000000)  returns 0x00 (0000ms, 0813ms total)
T4E4C 002:919 JLINK_WriteReg(R13 (SP), 0x20000800)  returns 0x00 (0000ms, 0813ms total)
T4E4C 002:919 JLINK_WriteReg(R14, 0x20000001)  returns 0x00 (0000ms, 0813ms total)
T4E4C 002:919 JLINK_WriteReg(R15 (PC), 0x200000F4)  returns 0x00 (0000ms, 0813ms total)
T4E4C 002:919 JLINK_WriteReg(XPSR, 0x01000000)  returns 0x00 (0001ms, 0814ms total)
T4E4C 002:920 JLINK_WriteReg(MSP, 0x20000800)  returns 0x00 (0000ms, 0814ms total)
T4E4C 002:920 JLINK_WriteReg(PSP, 0x20000800)  returns 0x00 (0000ms, 0814ms total)
T4E4C 002:920 JLINK_WriteReg(CFBP, 0x00000000)  returns 0x00 (0000ms, 0814ms total)
T4E4C 002:920 JLINK_SetBPEx(Addr = 0x20000000, Type = 0xFFFFFFF2)  returns 0x0000000E (0000ms, 0814ms total)
T4E4C 002:920 JLINK_Go() (0001ms, 0815ms total)
T4E4C 002:921 JLINK_IsHalted()  returns FALSE (0001ms, 0816ms total)
T4E4C 003:026 JLINK_IsHalted() -- CPU_ReadMem(2 bytes @ 0x20000000)  returns TRUE (0002ms, 0817ms total)
T4E4C 003:028 JLINK_ReadReg(R15 (PC))  returns 0x20000000 (0000ms, 0815ms total)
T4E4C 003:028 JLINK_ClrBPEx(BPHandle = 0x0000000E)  returns 0x00 (0000ms, 0815ms total)
T4E4C 003:028 JLINK_ReadReg(R0)  returns 0x00000000 (0000ms, 0815ms total)
T4E4C 003:029 JLINK_WriteMem(0x20000164, 0x0400 Bytes, ...) -- Data:  27 49 88 80 16 E0 26 48 C0 88 98 B1 25 48 40 69 ... -- CPU_WriteMem(1024 bytes @ 0x20000164)  returns 0x400 (0006ms, 0821ms total)
T4E4C 003:035 JLINK_WriteReg(R0, 0x08002800)  returns 0x00 (0001ms, 0822ms total)
T4E4C 003:036 JLINK_WriteReg(R1, 0x00000400)  returns 0x00 (0000ms, 0822ms total)
T4E4C 003:036 JLINK_WriteReg(R2, 0x20000164)  returns 0x00 (0000ms, 0822ms total)
T4E4C 003:036 JLINK_WriteReg(R3, 0x00000000)  returns 0x00 (0000ms, 0822ms total)
T4E4C 003:036 JLINK_WriteReg(R4, 0x00000000)  returns 0x00 (0000ms, 0822ms total)
T4E4C 003:036 JLINK_WriteReg(R5, 0x00000000)  returns 0x00 (0000ms, 0822ms total)
T4E4C 003:036 JLINK_WriteReg(R6, 0x00000000)  returns 0x00 (0000ms, 0822ms total)
T4E4C 003:036 JLINK_WriteReg(R7, 0x00000000)  returns 0x00 (0000ms, 0822ms total)
T4E4C 003:036 JLINK_WriteReg(R8, 0x00000000)  returns 0x00 (0000ms, 0822ms total)
T4E4C 003:036 JLINK_WriteReg(R9, 0x20000160)  returns 0x00 (0000ms, 0822ms total)
T4E4C 003:036 JLINK_WriteReg(R10, 0x00000000)  returns 0x00 (0000ms, 0822ms total)
T4E4C 003:036 JLINK_WriteReg(R11, 0x00000000)  returns 0x00 (0000ms, 0822ms total)
T4E4C 003:036 JLINK_WriteReg(R12, 0x00000000)  returns 0x00 (0000ms, 0822ms total)
T4E4C 003:036 JLINK_WriteReg(R13 (SP), 0x20000800)  returns 0x00 (0000ms, 0822ms total)
T4E4C 003:036 JLINK_WriteReg(R14, 0x20000001)  returns 0x00 (0000ms, 0822ms total)
T4E4C 003:036 JLINK_WriteReg(R15 (PC), 0x200000F4)  returns 0x00 (0000ms, 0822ms total)
T4E4C 003:037 JLINK_WriteReg(XPSR, 0x01000000)  returns 0x00 (0000ms, 0822ms total)
T4E4C 003:037 JLINK_WriteReg(MSP, 0x20000800)  returns 0x00 (0000ms, 0822ms total)
T4E4C 003:037 JLINK_WriteReg(PSP, 0x20000800)  returns 0x00 (0000ms, 0822ms total)
T4E4C 003:037 JLINK_WriteReg(CFBP, 0x00000000)  returns 0x00 (0000ms, 0822ms total)
T4E4C 003:037 JLINK_SetBPEx(Addr = 0x20000000, Type = 0xFFFFFFF2)  returns 0x0000000F (0000ms, 0822ms total)
T4E4C 003:037 JLINK_Go() (0001ms, 0823ms total)
T4E4C 003:038 JLINK_IsHalted()  returns FALSE (0000ms, 0823ms total)
T4E4C 003:088 JLINK_IsHalted() -- CPU_ReadMem(2 bytes @ 0x20000000)  returns TRUE (0002ms, 0825ms total)
T4E4C 003:090 JLINK_ReadReg(R15 (PC))  returns 0x20000000 (0000ms, 0823ms total)
T4E4C 003:090 JLINK_ClrBPEx(BPHandle = 0x0000000F)  returns 0x00 (0000ms, 0823ms total)
T4E4C 003:090 JLINK_ReadReg(R0)  returns 0x00000000 (0000ms, 0823ms total)
T4E4C 003:091 JLINK_WriteMem(0x20000164, 0x0400 Bytes, ...) -- Data:  CD E9 00 10 A0 21 14 20 02 F0 ED FF 52 A0 10 21 ... -- CPU_WriteMem(1024 bytes @ 0x20000164)  returns 0x400 (0006ms, 0829ms total)
T4E4C 003:097 JLINK_WriteReg(R0, 0x08002C00)  returns 0x00 (0001ms, 0830ms total)
T4E4C 003:098 JLINK_WriteReg(R1, 0x00000400)  returns 0x00 (0000ms, 0830ms total)
T4E4C 003:098 JLINK_WriteReg(R2, 0x20000164)  returns 0x00 (0000ms, 0830ms total)
T4E4C 003:098 JLINK_WriteReg(R3, 0x00000000)  returns 0x00 (0000ms, 0830ms total)
T4E4C 003:098 JLINK_WriteReg(R4, 0x00000000)  returns 0x00 (0000ms, 0830ms total)
T4E4C 003:098 JLINK_WriteReg(R5, 0x00000000)  returns 0x00 (0000ms, 0830ms total)
T4E4C 003:098 JLINK_WriteReg(R6, 0x00000000)  returns 0x00 (0000ms, 0830ms total)
T4E4C 003:098 JLINK_WriteReg(R7, 0x00000000)  returns 0x00 (0000ms, 0830ms total)
T4E4C 003:098 JLINK_WriteReg(R8, 0x00000000)  returns 0x00 (0000ms, 0830ms total)
T4E4C 003:098 JLINK_WriteReg(R9, 0x20000160)  returns 0x00 (0000ms, 0830ms total)
T4E4C 003:098 JLINK_WriteReg(R10, 0x00000000)  returns 0x00 (0000ms, 0830ms total)
T4E4C 003:098 JLINK_WriteReg(R11, 0x00000000)  returns 0x00 (0000ms, 0830ms total)
T4E4C 003:098 JLINK_WriteReg(R12, 0x00000000)  returns 0x00 (0000ms, 0830ms total)
T4E4C 003:098 JLINK_WriteReg(R13 (SP), 0x20000800)  returns 0x00 (0000ms, 0830ms total)
T4E4C 003:098 JLINK_WriteReg(R14, 0x20000001)  returns 0x00 (0000ms, 0830ms total)
T4E4C 003:098 JLINK_WriteReg(R15 (PC), 0x200000F4)  returns 0x00 (0001ms, 0831ms total)
T4E4C 003:099 JLINK_WriteReg(XPSR, 0x01000000)  returns 0x00 (0000ms, 0831ms total)
T4E4C 003:099 JLINK_WriteReg(MSP, 0x20000800)  returns 0x00 (0000ms, 0831ms total)
T4E4C 003:099 JLINK_WriteReg(PSP, 0x20000800)  returns 0x00 (0000ms, 0831ms total)
T4E4C 003:099 JLINK_WriteReg(CFBP, 0x00000000)  returns 0x00 (0000ms, 0831ms total)
T4E4C 003:099 JLINK_SetBPEx(Addr = 0x20000000, Type = 0xFFFFFFF2)  returns 0x00000010 (0000ms, 0831ms total)
T4E4C 003:099 JLINK_Go() (0001ms, 0832ms total)
T4E4C 003:100 JLINK_IsHalted()  returns FALSE (0001ms, 0833ms total)
T4E4C 003:111 JLINK_IsHalted()  returns FALSE (0000ms, 0832ms total)
T4E4C 003:113 JLINK_IsHalted()  returns FALSE (0000ms, 0832ms total)
T4E4C 003:211 JLINK_IsHalted() -- CPU_ReadMem(2 bytes @ 0x20000000)  returns TRUE (0002ms, 0834ms total)
T4E4C 003:213 JLINK_ReadReg(R15 (PC))  returns 0x20000000 (0000ms, 0832ms total)
T4E4C 003:213 JLINK_ClrBPEx(BPHandle = 0x00000010)  returns 0x00 (0000ms, 0832ms total)
T4E4C 003:213 JLINK_ReadReg(R0)  returns 0x00000000 (0000ms, 0832ms total)
T4E4C 003:213 JLINK_WriteMem(0x20000164, 0x0400 Bytes, ...) -- Data:  02 F0 74 FB 4F F6 FF 70 C4 23 52 22 19 46 00 90 ... -- CPU_WriteMem(1024 bytes @ 0x20000164)  returns 0x400 (0006ms, 0838ms total)
T4E4C 003:219 JLINK_WriteReg(R0, 0x08003000)  returns 0x00 (0000ms, 0838ms total)
T4E4C 003:219 JLINK_WriteReg(R1, 0x00000400)  returns 0x00 (0001ms, 0839ms total)
T4E4C 003:220 JLINK_WriteReg(R2, 0x20000164)  returns 0x00 (0000ms, 0839ms total)
T4E4C 003:220 JLINK_WriteReg(R3, 0x00000000)  returns 0x00 (0000ms, 0839ms total)
T4E4C 003:220 JLINK_WriteReg(R4, 0x00000000)  returns 0x00 (0000ms, 0839ms total)
T4E4C 003:220 JLINK_WriteReg(R5, 0x00000000)  returns 0x00 (0000ms, 0839ms total)
T4E4C 003:220 JLINK_WriteReg(R6, 0x00000000)  returns 0x00 (0000ms, 0839ms total)
T4E4C 003:220 JLINK_WriteReg(R7, 0x00000000)  returns 0x00 (0000ms, 0839ms total)
T4E4C 003:220 JLINK_WriteReg(R8, 0x00000000)  returns 0x00 (0000ms, 0839ms total)
T4E4C 003:220 JLINK_WriteReg(R9, 0x20000160)  returns 0x00 (0000ms, 0839ms total)
T4E4C 003:220 JLINK_WriteReg(R10, 0x00000000)  returns 0x00 (0000ms, 0839ms total)
T4E4C 003:220 JLINK_WriteReg(R11, 0x00000000)  returns 0x00 (0000ms, 0839ms total)
T4E4C 003:220 JLINK_WriteReg(R12, 0x00000000)  returns 0x00 (0000ms, 0839ms total)
T4E4C 003:220 JLINK_WriteReg(R13 (SP), 0x20000800)  returns 0x00 (0000ms, 0839ms total)
T4E4C 003:220 JLINK_WriteReg(R14, 0x20000001)  returns 0x00 (0000ms, 0839ms total)
T4E4C 003:220 JLINK_WriteReg(R15 (PC), 0x200000F4)  returns 0x00 (0000ms, 0839ms total)
T4E4C 003:220 JLINK_WriteReg(XPSR, 0x01000000)  returns 0x00 (0000ms, 0839ms total)
T4E4C 003:220 JLINK_WriteReg(MSP, 0x20000800)  returns 0x00 (0000ms, 0839ms total)
T4E4C 003:220 JLINK_WriteReg(PSP, 0x20000800)  returns 0x00 (0000ms, 0839ms total)
T4E4C 003:221 JLINK_WriteReg(CFBP, 0x00000000)  returns 0x00 (0000ms, 0840ms total)
T4E4C 003:221 JLINK_SetBPEx(Addr = 0x20000000, Type = 0xFFFFFFF2)  returns 0x00000011 (0000ms, 0840ms total)
T4E4C 003:221 JLINK_Go() (0002ms, 0842ms total)
T4E4C 003:223 JLINK_IsHalted()  returns FALSE (0001ms, 0843ms total)
T4E4C 003:234 JLINK_IsHalted()  returns FALSE (0000ms, 0842ms total)
T4E4C 003:236 JLINK_IsHalted()  returns FALSE (0000ms, 0842ms total)
T4E4C 003:335 JLINK_IsHalted() -- CPU_ReadMem(2 bytes @ 0x20000000)  returns TRUE (0003ms, 0845ms total)
T4E4C 003:338 JLINK_ReadReg(R15 (PC))  returns 0x20000000 (0000ms, 0842ms total)
T4E4C 003:338 JLINK_ClrBPEx(BPHandle = 0x00000011)  returns 0x00 (0000ms, 0842ms total)
T4E4C 003:338 JLINK_ReadReg(R0)  returns 0x00000000 (0000ms, 0842ms total)
T4E4C 003:338 JLINK_WriteMem(0x20000164, 0x0400 Bytes, ...) -- Data:  D8 23 42 22 19 46 00 90 3A 20 02 F0 6F F9 4F F6 ... -- CPU_WriteMem(1024 bytes @ 0x20000164)  returns 0x400 (0006ms, 0848ms total)
T4E4C 003:344 JLINK_WriteReg(R0, 0x08003400)  returns 0x00 (0001ms, 0849ms total)
T4E4C 003:345 JLINK_WriteReg(R1, 0x00000400)  returns 0x00 (0000ms, 0849ms total)
T4E4C 003:345 JLINK_WriteReg(R2, 0x20000164)  returns 0x00 (0000ms, 0849ms total)
T4E4C 003:345 JLINK_WriteReg(R3, 0x00000000)  returns 0x00 (0000ms, 0849ms total)
T4E4C 003:345 JLINK_WriteReg(R4, 0x00000000)  returns 0x00 (0000ms, 0849ms total)
T4E4C 003:345 JLINK_WriteReg(R5, 0x00000000)  returns 0x00 (0000ms, 0849ms total)
T4E4C 003:345 JLINK_WriteReg(R6, 0x00000000)  returns 0x00 (0000ms, 0849ms total)
T4E4C 003:345 JLINK_WriteReg(R7, 0x00000000)  returns 0x00 (0000ms, 0849ms total)
T4E4C 003:345 JLINK_WriteReg(R8, 0x00000000)  returns 0x00 (0000ms, 0849ms total)
T4E4C 003:345 JLINK_WriteReg(R9, 0x20000160)  returns 0x00 (0000ms, 0849ms total)
T4E4C 003:345 JLINK_WriteReg(R10, 0x00000000)  returns 0x00 (0000ms, 0849ms total)
T4E4C 003:345 JLINK_WriteReg(R11, 0x00000000)  returns 0x00 (0000ms, 0849ms total)
